Time [s],Packet ID,Address,Data,Read/Write,ACK/NAK
1.537369890000000,0,0x44,0xE0,Write,ACK
1.539201540000000,0,0x44,0x65,Read,ACK
1.539288140000000,0,0x44,0xD8,Read,ACK
1.539374740000000,0,0x44,0x1E,Read,ACK
1.539461340000000,0,0x44,0x73,Read,ACK
1.539547940000000,0,0x44,0x55,Read,ACK
1.539634540000000,0,0x44,0x1C,Read,NAK
1.541466190000000,0,0x44,0xE0,Write,ACK
1.543297840000000,0,0x44,0x65,Read,ACK
1.543384440000000,0,0x44,0xBC,Read,ACK
1.543471040000000,0,0x44,0x61,Read,ACK
1.543557640000000,0,0x44,0x73,Read,ACK
1.543644240000000,0,0x44,0x37,Read,ACK
1.543730840000000,0,0x44,0xC5,Read,NAK
1.545562480000000,0,0x44,0xE0,Write,ACK
1.547394140000000,0,0x44,0x65,Read,ACK
1.547480740000000,0,0x44,0xDC,Read,ACK
1.547567340000000,0,0x44,0xDA,Read,ACK
1.547653940000000,0,0x44,0x73,Read,ACK
1.547740540000000,0,0x44,0x09,Read,ACK
1.547827140000000,0,0x44,0x1F,Read,NAK
1.549658780000000,0,0x44,0xE0,Write,ACK
1.551490440000000,0,0x44,0x65,Read,ACK
1.551577040000000,0,0x44,0xD2,Read,ACK
1.551663640000000,0,0x44,0xC5,Read,ACK
1.551750240000000,0,0x44,0x73,Read,ACK
1.551836840000000,0,0x44,0x3B,Read,ACK
1.551923440000000,0,0x44,0xB8,Read,NAK
1.553755080000000,0,0x44,0xE0,Write,ACK
1.555586730000000,0,0x44,0x65,Read,ACK
1.555673330000000,0,0x44,0xC9,Read,ACK
1.555759940000000,0,0x44,0x6C,Read,ACK
1.555846540000000,0,0x44,0x73,Read,ACK
1.555933140000000,0,0x44,0x1F,Read,ACK
1.556019730000000,0,0x44,0xFA,Read,NAK
1.557851380000000,0,0x44,0xE0,Write,ACK
1.559683030000000,0,0x44,0x65,Read,ACK
1.559769630000000,0,0x44,0xD9,Read,ACK
1.559856230000000,0,0x44,0x2F,Read,ACK
1.559942830000000,0,0x44,0x73,Read,ACK
1.560029430000000,0,0x44,0x08,Read,ACK
1.560116040000000,0,0x44,0x2E,Read,NAK
1.561947680000000,0,0x44,0xE0,Write,ACK
1.563779330000000,0,0x44,0x65,Read,ACK
1.563865930000000,0,0x44,0xE0,Read,ACK
1.563952530000000,0,0x44,0x62,Read,ACK
1.564039130000000,0,0x44,0x73,Read,ACK
1.564125730000000,0,0x44,0x09,Read,ACK
1.564212330000000,0,0x44,0x1F,Read,NAK
1.566043980000000,0,0x44,0xE0,Write,ACK
1.567875630000000,0,0x44,0x65,Read,ACK
1.567962230000000,0,0x44,0xC5,Read,ACK
1.568048830000000,0,0x44,0x11,Read,ACK
1.568135430000000,0,0x44,0x73,Read,ACK
1.568222030000000,0,0x44,0x04,Read,ACK
1.568308630000000,0,0x44,0x53,Read,NAK
1.570140280000000,0,0x44,0xE0,Write,ACK
1.571971930000000,0,0x44,0x65,Read,ACK
1.572058530000000,0,0x44,0xD9,Read,ACK
1.572145130000000,0,0x44,0x2F,Read,ACK
1.572231730000000,0,0x44,0x73,Read,ACK
1.572318330000000,0,0x44,0x3C,Read,ACK
1.572404930000000,0,0x44,0x2F,Read,NAK
1.574236570000000,0,0x44,0xE0,Write,ACK
1.576068230000000,0,0x44,0x65,Read,ACK
1.576154820000000,0,0x44,0xD3,Read,ACK
1.576241430000000,0,0x44,0xF4,Read,ACK
1.576328030000000,0,0x44,0x73,Read,ACK
1.576414630000000,0,0x44,0x3B,Read,ACK
1.576501230000000,0,0x44,0xB8,Read,NAK
1.578332870000000,0,0x44,0xE0,Write,ACK
1.580164520000000,0,0x44,0x65,Read,ACK
1.580251120000000,0,0x44,0xD2,Read,ACK
1.580337720000000,0,0x44,0xC5,Read,ACK
1.580424330000000,0,0x44,0x73,Read,ACK
1.580510930000000,0,0x44,0x07,Read,ACK
1.580597530000000,0,0x44,0x00,Read,NAK
1.582429170000000,0,0x44,0xE0,Write,ACK
1.584260820000000,0,0x44,0x65,Read,ACK
1.584347420000000,0,0x44,0xCB,Read,ACK
1.584434020000000,0,0x44,0x0E,Read,ACK
1.584520620000000,0,0x44,0x73,Read,ACK
1.584607220000000,0,0x44,0x1F,Read,ACK
1.584693820000000,0,0x44,0xFA,Read,NAK
1.586525470000000,0,0x44,0xE0,Write,ACK
1.588357120000000,0,0x44,0x65,Read,ACK
1.588443720000000,0,0x44,0xCC,Read,ACK
1.588530320000000,0,0x44,0x99,Read,ACK
1.588616920000000,0,0x44,0x73,Read,ACK
1.588703520000000,0,0x44,0x3A,Read,ACK
1.588790120000000,0,0x44,0x89,Read,NAK
1.590621770000000,0,0x44,0xE0,Write,ACK
1.592453420000000,0,0x44,0x65,Read,ACK
1.592540020000000,0,0x44,0xC9,Read,ACK
1.592626620000000,0,0x44,0x6C,Read,ACK
1.592713220000000,0,0x44,0x73,Read,ACK
1.592799820000000,0,0x44,0x39,Read,ACK
1.592886420000000,0,0x44,0xDA,Read,NAK
1.594718060000000,0,0x44,0xE0,Write,ACK
1.596549720000000,0,0x44,0x65,Read,ACK
1.596636320000000,0,0x44,0xE6,Read,ACK
1.596722920000000,0,0x44,0xC4,Read,ACK
1.596809520000000,0,0x44,0x73,Read,ACK
1.596896120000000,0,0x44,0x72,Read,ACK
1.596982720000000,0,0x44,0x0D,Read,NAK
1.598814360000000,0,0x44,0xE0,Write,ACK
1.600646020000000,0,0x44,0x65,Read,ACK
1.600732620000000,0,0x44,0xD8,Read,ACK
1.600819220000000,0,0x44,0x1E,Read,ACK
1.600905820000000,0,0x44,0x73,Read,ACK
1.600992420000000,0,0x44,0x08,Read,ACK
1.601079020000000,0,0x44,0x2E,Read,NAK
1.602910660000000,0,0x44,0xE0,Write,ACK
1.604742310000000,0,0x44,0x65,Read,ACK
1.604828910000000,0,0x44,0xDE,Read,ACK
1.604915520000000,0,0x44,0xB8,Read,ACK
1.605002120000000,0,0x44,0x73,Read,ACK
1.605088720000000,0,0x44,0x23,Read,ACK
1.605175320000000,0,0x44,0x42,Read,NAK
1.607006960000000,0,0x44,0xE0,Write,ACK
1.608838620000000,0,0x44,0x65,Read,ACK
1.608925210000000,0,0x44,0xE2,Read,ACK
1.609011820000000,0,0x44,0x00,Read,ACK
1.609098420000000,0,0x44,0x73,Read,ACK
1.609185020000000,0,0x44,0x24,Read,ACK
1.609271620000000,0,0x44,0xD5,Read,NAK
1.611103260000000,0,0x44,0xE0,Write,ACK
1.612934910000000,0,0x44,0x65,Read,ACK
1.613021510000000,0,0x44,0xDF,Read,ACK
1.613108110000000,0,0x44,0x89,Read,ACK
1.613194710000000,0,0x44,0x73,Read,ACK
1.613281310000000,0,0x44,0x23,Read,ACK
1.613367920000000,0,0x44,0x42,Read,NAK
1.615199560000000,0,0x44,0xE0,Write,ACK
1.617031210000000,0,0x44,0x65,Read,ACK
1.617117810000000,0,0x44,0xCE,Read,ACK
1.617204410000000,0,0x44,0xFB,Read,ACK
1.617291010000000,0,0x44,0x73,Read,ACK
1.617377610000000,0,0x44,0x54,Read,ACK
1.617464210000000,0,0x44,0x2D,Read,NAK
1.619295860000000,0,0x44,0xE0,Write,ACK
1.621127510000000,0,0x44,0x65,Read,ACK
1.621214110000000,0,0x44,0xDE,Read,ACK
1.621300710000000,0,0x44,0xB8,Read,ACK
1.621387310000000,0,0x44,0x73,Read,ACK
1.621473910000000,0,0x44,0x71,Read,ACK
1.621560510000000,0,0x44,0x5E,Read,NAK
1.623392160000000,0,0x44,0xE0,Write,ACK
1.625223810000000,0,0x44,0x65,Read,ACK
1.625310410000000,0,0x44,0xEA,Read,ACK
1.625397010000000,0,0x44,0xB9,Read,ACK
1.625483610000000,0,0x44,0x73,Read,ACK
1.625570210000000,0,0x44,0x3F,Read,ACK
1.625656810000000,0,0x44,0x7C,Read,NAK
1.627488450000000,0,0x44,0xE0,Write,ACK
1.629320110000000,0,0x44,0x65,Read,ACK
1.629406710000000,0,0x44,0xD2,Read,ACK
1.629493310000000,0,0x44,0xC5,Read,ACK
1.629579910000000,0,0x44,0x73,Read,ACK
1.629666510000000,0,0x44,0x6E,Read,ACK
1.629753110000000,0,0x44,0x33,Read,NAK
1.631584750000000,0,0x44,0xE0,Write,ACK
1.633416410000000,0,0x44,0x65,Read,ACK
1.633503010000000,0,0x44,0xDC,Read,ACK
1.633589610000000,0,0x44,0xDA,Read,ACK
1.633676210000000,0,0x44,0x73,Read,ACK
1.633762810000000,0,0x44,0x22,Read,ACK
1.633849410000000,0,0x44,0x73,Read,NAK
1.635681050000000,0,0x44,0xE0,Write,ACK
1.637512700000000,0,0x44,0x65,Read,ACK
1.637599300000000,0,0x44,0xD7,Read,ACK
1.637685900000000,0,0x44,0x30,Read,ACK
1.637772510000000,0,0x44,0x73,Read,ACK
1.637859110000000,0,0x44,0x6F,Read,ACK
1.637945710000000,0,0x44,0x02,Read,NAK
1.639777350000000,0,0x44,0xE0,Write,ACK
1.641609000000000,0,0x44,0x65,Read,ACK
1.641695600000000,0,0x44,0xDB,Read,ACK
1.641782200000000,0,0x44,0x4D,Read,ACK
1.641868800000000,0,0x44,0x73,Read,ACK
1.641955400000000,0,0x44,0x70,Read,ACK
1.642042010000000,0,0x44,0x6F,Read,NAK
1.643873650000000,0,0x44,0xE0,Write,ACK
1.645705300000000,0,0x44,0x65,Read,ACK
1.645791900000000,0,0x44,0xDE,Read,ACK
1.645878500000000,0,0x44,0xB8,Read,ACK
1.645965100000000,0,0x44,0x73,Read,ACK
1.646051700000000,0,0x44,0x3D,Read,ACK
1.646138300000000,0,0x44,0x1E,Read,NAK
1.647969950000000,0,0x44,0xE0,Write,ACK
1.649801600000000,0,0x44,0x65,Read,ACK
1.649888200000000,0,0x44,0xE1,Read,ACK
1.649974800000000,0,0x44,0x53,Read,ACK
1.650061400000000,0,0x44,0x73,Read,ACK
1.650148000000000,0,0x44,0x57,Read,ACK
1.650234600000000,0,0x44,0x7E,Read,NAK
1.652066250000000,0,0x44,0xE0,Write,ACK
1.653897900000000,0,0x44,0x65,Read,ACK
1.653984500000000,0,0x44,0xEB,Read,ACK
1.654071100000000,0,0x44,0x88,Read,ACK
1.654157700000000,0,0x44,0x73,Read,ACK
1.654244300000000,0,0x44,0x40,Read,ACK
1.654330900000000,0,0x44,0xAA,Read,NAK
1.656162540000000,0,0x44,0xE0,Write,ACK
1.657994200000000,0,0x44,0x65,Read,ACK
1.658080800000000,0,0x44,0xCF,Read,ACK
1.658167400000000,0,0x44,0xCA,Read,ACK
1.658254000000000,0,0x44,0x73,Read,ACK
1.658340600000000,0,0x44,0xA2,Read,ACK
1.658427200000000,0,0x44,0x09,Read,NAK
1.660258840000000,0,0x44,0xE0,Write,ACK
1.662090500000000,0,0x44,0x65,Read,ACK
1.662177100000000,0,0x44,0xD8,Read,ACK
1.662263700000000,0,0x44,0x1E,Read,ACK
1.662350300000000,0,0x44,0x73,Read,ACK
1.662436900000000,0,0x44,0x55,Read,ACK
1.662523500000000,0,0x44,0x1C,Read,NAK
1.664355140000000,0,0x44,0xE0,Write,ACK
1.666186790000000,0,0x44,0x65,Read,ACK
1.666273390000000,0,0x44,0xDD,Read,ACK
1.666360000000000,0,0x44,0xEB,Read,ACK
1.666446600000000,0,0x44,0x73,Read,ACK
1.666533200000000,0,0x44,0x70,Read,ACK
1.666619800000000,0,0x44,0x6F,Read,NAK
1.668451440000000,0,0x44,0xE0,Write,ACK
1.670283090000000,0,0x44,0x65,Read,ACK
1.670369690000000,0,0x44,0xE0,Read,ACK
1.670456300000000,0,0x44,0x62,Read,ACK
1.670542900000000,0,0x44,0x73,Read,ACK
1.670629490000000,0,0x44,0x8B,Read,ACK
1.670716100000000,0,0x44,0x07,Read,NAK
1.672547740000000,0,0x44,0xE0,Write,ACK
1.674379390000000,0,0x44,0x65,Read,ACK
1.674465990000000,0,0x44,0xEB,Read,ACK
1.674552590000000,0,0x44,0x88,Read,ACK
1.674639200000000,0,0x44,0x73,Read,ACK
1.674725790000000,0,0x44,0xC1,Read,ACK
1.674812390000000,0,0x44,0xE1,Read,NAK
1.676644040000000,0,0x44,0xE0,Write,ACK
1.678475690000000,0,0x44,0x65,Read,ACK
1.678562290000000,0,0x44,0xEA,Read,ACK
1.678648890000000,0,0x44,0xB9,Read,ACK
1.678735490000000,0,0x44,0x73,Read,ACK
1.678822090000000,0,0x44,0x8D,Read,ACK
1.678908690000000,0,0x44,0xA1,Read,NAK
1.680740340000000,0,0x44,0xE0,Write,ACK
1.682571990000000,0,0x44,0x65,Read,ACK
1.682658590000000,0,0x44,0xE2,Read,ACK
1.682745190000000,0,0x44,0x00,Read,ACK
1.682831790000000,0,0x44,0x73,Read,ACK
1.682918390000000,0,0x44,0x3E,Read,ACK
1.683004990000000,0,0x44,0x4D,Read,NAK
1.684836640000000,0,0x44,0xE0,Write,ACK
1.686668290000000,0,0x44,0x65,Read,ACK
1.686754890000000,0,0x44,0xD2,Read,ACK
1.686841490000000,0,0x44,0xC5,Read,ACK
1.686928090000000,0,0x44,0x73,Read,ACK
1.687014690000000,0,0x44,0x89,Read,ACK
1.687101290000000,0,0x44,0x65,Read,NAK
1.688932940000000,0,0x44,0xE0,Write,ACK
1.690764590000000,0,0x44,0x65,Read,ACK
1.690851190000000,0,0x44,0xE6,Read,ACK
1.690937790000000,0,0x44,0xC4,Read,ACK
1.691024390000000,0,0x44,0x73,Read,ACK
1.691110990000000,0,0x44,0x58,Read,ACK
1.691197590000000,0,0x44,0x50,Read,NAK
1.693029230000000,0,0x44,0xE0,Write,ACK
1.694860890000000,0,0x44,0x65,Read,ACK
1.694947490000000,0,0x44,0xD9,Read,ACK
1.695034090000000,0,0x44,0x2F,Read,ACK
1.695120690000000,0,0x44,0x73,Read,ACK
1.695207290000000,0,0x44,0xA4,Read,ACK
1.695293890000000,0,0x44,0xAF,Read,NAK
1.697125530000000,0,0x44,0xE0,Write,ACK
1.698957190000000,0,0x44,0x65,Read,ACK
1.699043790000000,0,0x44,0xEA,Read,ACK
1.699130390000000,0,0x44,0xB9,Read,ACK
1.699216990000000,0,0x44,0x73,Read,ACK
1.699303590000000,0,0x44,0xA7,Read,ACK
1.699390190000000,0,0x44,0xFC,Read,NAK
1.701221830000000,0,0x44,0xE0,Write,ACK
1.703053490000000,0,0x44,0x65,Read,ACK
1.703140080000000,0,0x44,0xDC,Read,ACK
1.703226690000000,0,0x44,0xDA,Read,ACK
1.703313290000000,0,0x44,0x73,Read,ACK
1.703399890000000,0,0x44,0x8A,Read,ACK
1.703486490000000,0,0x44,0x36,Read,NAK
1.705318130000000,0,0x44,0xE0,Write,ACK
1.707149780000000,0,0x44,0x65,Read,ACK
1.707236380000000,0,0x44,0xDA,Read,ACK
1.707322990000000,0,0x44,0x7C,Read,ACK
1.707409590000000,0,0x44,0x73,Read,ACK
1.707496190000000,0,0x44,0x70,Read,ACK
1.707582790000000,0,0x44,0x6F,Read,NAK
1.709414430000000,0,0x44,0xE0,Write,ACK
1.711246080000000,0,0x44,0x65,Read,ACK
1.711332680000000,0,0x44,0xE4,Read,ACK
1.711419290000000,0,0x44,0xA6,Read,ACK
1.711505880000000,0,0x44,0x73,Read,ACK
1.711592490000000,0,0x44,0x8C,Read,ACK
1.711679090000000,0,0x44,0x90,Read,NAK
1.713510730000000,0,0x44,0xE0,Write,ACK
1.715342380000000,0,0x44,0x65,Read,ACK
1.715428980000000,0,0x44,0xE6,Read,ACK
1.715515580000000,0,0x44,0xC4,Read,ACK
1.715602190000000,0,0x44,0x74,Read,ACK
1.715688790000000,0,0x44,0x0F,Read,ACK
1.715775390000000,0,0x44,0x17,Read,NAK
1.717607030000000,0,0x44,0xE0,Write,ACK
1.719438680000000,0,0x44,0x65,Read,ACK
1.719525280000000,0,0x44,0xDD,Read,ACK
1.719611880000000,0,0x44,0xEB,Read,ACK
1.719698480000000,0,0x44,0x73,Read,ACK
1.719785080000000,0,0x44,0xBF,Read,ACK
1.719871690000000,0,0x44,0x06,Read,NAK
1.721703330000000,0,0x44,0xE0,Write,ACK
1.723534980000000,0,0x44,0x65,Read,ACK
1.723621580000000,0,0x44,0xD7,Read,ACK
1.723708180000000,0,0x44,0x30,Read,ACK
1.723794780000000,0,0x44,0x73,Read,ACK
1.723881380000000,0,0x44,0xBE,Read,ACK
1.723967990000000,0,0x44,0x37,Read,NAK
1.725799630000000,0,0x44,0xE0,Write,ACK
2.637805130000000,0,0x44,0x65,Read,ACK
2.637891730000000,0,0x44,0xE4,Read,ACK
2.637978330000000,0,0x44,0xA6,Read,ACK
2.638064930000000,0,0x44,0x73,Read,ACK
2.638151530000000,0,0x44,0xA6,Read,ACK
2.638238130000000,0,0x44,0xCD,Read,NAK
2.640069770000000,0,0x44,0xE0,Write,ACK
2.641901430000000,0,0x44,0x65,Read,ACK
2.641988030000000,0,0x44,0xAD,Read,ACK
2.642074630000000,0,0x44,0x13,Read,ACK
2.642161230000000,0,0x44,0x79,Read,ACK
2.642247830000000,0,0x44,0xA0,Read,ACK
2.642334430000000,0,0x44,0x85,Read,NAK
2.644166070000000,0,0x44,0xE0,Write,ACK
2.645997730000000,0,0x44,0x65,Read,ACK
2.646084330000000,0,0x44,0xBB,Read,ACK
2.646170930000000,0,0x44,0xF6,Read,ACK
2.646257530000000,0,0x44,0x79,Read,ACK
2.646344130000000,0,0x44,0xBC,Read,ACK
2.646430730000000,0,0x44,0xBB,Read,NAK
2.648262370000000,0,0x44,0xE0,Write,ACK
2.650094030000000,0,0x44,0x65,Read,ACK
2.650180630000000,0,0x44,0xA9,Read,ACK
2.650267230000000,0,0x44,0xD7,Read,ACK
2.650353830000000,0,0x44,0x79,Read,ACK
2.650440430000000,0,0x44,0xB9,Read,ACK
2.650527030000000,0,0x44,0x4E,Read,NAK
2.652358670000000,0,0x44,0xE0,Write,ACK
2.654190330000000,0,0x44,0x65,Read,ACK
2.654276930000000,0,0x44,0xC2,Read,ACK
2.654363530000000,0,0x44,0x86,Read,ACK
2.654450130000000,0,0x44,0x79,Read,ACK
2.654536730000000,0,0x44,0x8A,Read,ACK
2.654623330000000,0,0x44,0xD8,Read,NAK
2.656454970000000,0,0x44,0xE0,Write,ACK
2.658286630000000,0,0x44,0x65,Read,ACK
2.658373230000000,0,0x44,0xB7,Read,ACK
2.658459830000000,0,0x44,0x8B,Read,ACK
2.658546430000000,0,0x44,0x79,Read,ACK
2.658633030000000,0,0x44,0xA2,Read,ACK
2.658719630000000,0,0x44,0xE7,Read,NAK
2.660551280000000,0,0x44,0xE0,Write,ACK
2.662382930000000,0,0x44,0x65,Read,ACK
2.662469530000000,0,0x44,0xAA,Read,ACK
2.662556130000000,0,0x44,0x84,Read,ACK
2.662642730000000,0,0x44,0x79,Read,ACK
2.662729330000000,0,0x44,0x9F,Read,ACK
2.662815930000000,0,0x44,0x6E,Read,NAK
2.664647580000000,0,0x44,0xE0,Write,ACK
2.666479230000000,0,0x44,0x65,Read,ACK
2.666565830000000,0,0x44,0xB1,Read,ACK
2.666652430000000,0,0x44,0x2D,Read,ACK
2.666739030000000,0,0x44,0x79,Read,ACK
2.666825630000000,0,0x44,0xA0,Read,ACK
2.666912230000000,0,0x44,0x85,Read,NAK
2.668743880000000,0,0x44,0xE0,Write,ACK
2.670575530000000,0,0x44,0x65,Read,ACK
2.670662130000000,0,0x44,0xB0,Read,ACK
2.670748730000000,0,0x44,0x1C,Read,ACK
2.670835330000000,0,0x44,0x79,Read,ACK
2.670921930000000,0,0x44,0xBB,Read,ACK
2.671008530000000,0,0x44,0x2C,Read,NAK
2.672840180000000,0,0x44,0xE0,Write,ACK
2.674671830000000,0,0x44,0x65,Read,ACK
2.674758430000000,0,0x44,0xC4,Read,ACK
2.674845030000000,0,0x44,0x20,Read,ACK
2.674931630000000,0,0x44,0x79,Read,ACK
2.675018230000000,0,0x44,0xBE,Read,ACK
2.675104830000000,0,0x44,0xD9,Read,NAK
2.676936480000000,0,0x44,0xE0,Write,ACK
2.678768130000000,0,0x44,0x65,Read,ACK
2.678854730000000,0,0x44,0xB8,Read,ACK
2.678941330000000,0,0x44,0xA5,Read,ACK
2.679027930000000,0,0x44,0x79,Read,ACK
2.679114530000000,0,0x44,0xEF,Read,ACK
2.679201130000000,0,0x44,0x96,Read,NAK
2.681032780000000,0,0x44,0xE0,Write,ACK
2.682864430000000,0,0x44,0x65,Read,ACK
2.682951030000000,0,0x44,0xBC,Read,ACK
2.683037630000000,0,0x44,0x61,Read,ACK
2.683124230000000,0,0x44,0x79,Read,ACK
2.683210830000000,0,0x44,0xBD,Read,ACK
2.683297430000000,0,0x44,0x8A,Read,NAK
2.685129080000000,0,0x44,0xE0,Write,ACK
2.686960730000000,0,0x44,0x65,Read,ACK
2.687047330000000,0,0x44,0xB5,Read,ACK
2.687133930000000,0,0x44,0xE9,Read,ACK
2.687220530000000,0,0x44,0x79,Read,ACK
2.687307130000000,0,0x44,0xBB,Read,ACK
2.687393740000000,0,0x44,0x2C,Read,NAK
2.689225380000000,0,0x44,0xE0,Write,ACK
2.691057030000000,0,0x44,0x65,Read,ACK
2.691143630000000,0,0x44,0xB8,Read,ACK
2.691230230000000,0,0x44,0xA5,Read,ACK
2.691316830000000,0,0x44,0x79,Read,ACK
2.691403430000000,0,0x44,0xA2,Read,ACK
2.691490040000000,0,0x44,0xE7,Read,NAK
2.693321680000000,0,0x44,0xE0,Write,ACK
2.695153330000000,0,0x44,0x65,Read,ACK
2.695239930000000,0,0x44,0xD2,Read,ACK
2.695326530000000,0,0x44,0xC5,Read,ACK
2.695413140000000,0,0x44,0x79,Read,ACK
2.695499740000000,0,0x44,0xA7,Read,ACK
2.695586340000000,0,0x44,0x12,Read,NAK
2.697417980000000,0,0x44,0xE0,Write,ACK
2.699249630000000,0,0x44,0x65,Read,ACK
2.699336230000000,0,0x44,0xCE,Read,ACK
2.699422830000000,0,0x44,0xFB,Read,ACK
2.699509440000000,0,0x44,0x79,Read,ACK
2.699596040000000,0,0x44,0xA6,Read,ACK
2.699682640000000,0,0x44,0x23,Read,NAK
2.701514280000000,0,0x44,0xE0,Write,ACK
2.703345940000000,0,0x44,0x65,Read,ACK
2.703432530000000,0,0x44,0xC0,Read,ACK
2.703519140000000,0,0x44,0xE4,Read,ACK
2.703605740000000,0,0x44,0x79,Read,ACK
2.703692340000000,0,0x44,0xA4,Read,ACK
2.703778940000000,0,0x44,0x41,Read,NAK
2.705610580000000,0,0x44,0xE0,Write,ACK
2.707442240000000,0,0x44,0x65,Read,ACK
2.707528840000000,0,0x44,0xC2,Read,ACK
2.707615440000000,0,0x44,0x86,Read,ACK
2.707702040000000,0,0x44,0x79,Read,ACK
2.707788640000000,0,0x44,0xBE,Read,ACK
2.707875240000000,0,0x44,0xD9,Read,NAK
2.709706880000000,0,0x44,0xE0,Write,ACK
2.711538540000000,0,0x44,0x65,Read,ACK
2.711625140000000,0,0x44,0xBF,Read,ACK
2.711711740000000,0,0x44,0x32,Read,ACK
2.711798340000000,0,0x44,0x79,Read,ACK
2.711884940000000,0,0x44,0xD7,Read,ACK
2.711971540000000,0,0x44,0xEA,Read,NAK
2.713803180000000,0,0x44,0xE0,Write,ACK
2.715634840000000,0,0x44,0x65,Read,ACK
2.715721440000000,0,0x44,0xBB,Read,ACK
2.715808040000000,0,0x44,0xF6,Read,ACK
2.715894640000000,0,0x44,0x79,Read,ACK
2.715981240000000,0,0x44,0xA2,Read,ACK
2.716067840000000,0,0x44,0xE7,Read,NAK
2.717899490000000,0,0x44,0xE0,Write,ACK
2.719731140000000,0,0x44,0x65,Read,ACK
2.719817740000000,0,0x44,0xBE,Read,ACK
2.719904340000000,0,0x44,0x03,Read,ACK
2.719990940000000,0,0x44,0x79,Read,ACK
2.720077540000000,0,0x44,0xD6,Read,ACK
2.720164140000000,0,0x44,0xDB,Read,NAK
2.721995780000000,0,0x44,0xE0,Write,ACK
2.723827440000000,0,0x44,0x65,Read,ACK
2.723914040000000,0,0x44,0xC5,Read,ACK
2.724000640000000,0,0x44,0x11,Read,ACK
2.724087240000000,0,0x44,0x79,Read,ACK
2.724173840000000,0,0x44,0xBE,Read,ACK
2.724260440000000,0,0x44,0xD9,Read,NAK
2.726092080000000,0,0x44,0xE0,Write,ACK
2.727923740000000,0,0x44,0x65,Read,ACK
2.728010340000000,0,0x44,0xB1,Read,ACK
2.728096940000000,0,0x44,0x2D,Read,ACK
2.728183540000000,0,0x44,0x79,Read,ACK
2.728270140000000,0,0x44,0xD4,Read,ACK
2.728356740000000,0,0x44,0xB9,Read,NAK
2.730188390000000,0,0x44,0xE0,Write,ACK
2.732020040000000,0,0x44,0x65,Read,ACK
2.732106640000000,0,0x44,0xB3,Read,ACK
2.732193240000000,0,0x44,0x4F,Read,ACK
2.732279840000000,0,0x44,0x79,Read,ACK
2.732366440000000,0,0x44,0xD4,Read,ACK
2.732453040000000,0,0x44,0xB9,Read,NAK
2.734284690000000,0,0x44,0xE0,Write,ACK
2.736116340000000,0,0x44,0x65,Read,ACK
2.736202940000000,0,0x44,0xBC,Read,ACK
2.736289540000000,0,0x44,0x61,Read,ACK
2.736376140000000,0,0x44,0x79,Read,ACK
2.736462740000000,0,0x44,0xF0,Read,ACK
2.736549340000000,0,0x44,0xFB,Read,NAK
2.738380990000000,0,0x44,0xE0,Write,ACK
2.740212640000000,0,0x44,0x65,Read,ACK
2.740299240000000,0,0x44,0xC1,Read,ACK
2.740385840000000,0,0x44,0xD5,Read,ACK
2.740472440000000,0,0x44,0x79,Read,ACK
2.740559040000000,0,0x44,0xD7,Read,ACK
2.740645640000000,0,0x44,0xEA,Read,NAK
2.742477290000000,0,0x44,0xE0,Write,ACK
2.744308940000000,0,0x44,0x65,Read,ACK
2.744395540000000,0,0x44,0xAE,Read,ACK
2.744482150000000,0,0x44,0x40,Read,ACK
2.744568750000000,0,0x44,0x7A,Read,ACK
2.744655350000000,0,0x44,0x08,Read,ACK
2.744741950000000,0,0x44,0xED,Read,NAK
2.746573590000000,0,0x44,0xE0,Write,ACK
2.748405240000000,0,0x44,0x65,Read,ACK
2.748491840000000,0,0x44,0xB1,Read,ACK
2.748578450000000,0,0x44,0x2D,Read,ACK
2.748665050000000,0,0x44,0x7A,Read,ACK
2.748751650000000,0,0x44,0x08,Read,ACK
2.748838250000000,0,0x44,0xED,Read,NAK
2.750669890000000,0,0x44,0xE0,Write,ACK
2.752501550000000,0,0x44,0x65,Read,ACK
2.752588140000000,0,0x44,0xC2,Read,ACK
2.752674750000000,0,0x44,0x86,Read,ACK
2.752761350000000,0,0x44,0x79,Read,ACK
2.752847950000000,0,0x44,0xF1,Read,ACK
2.752934550000000,0,0x44,0xCA,Read,NAK
2.754766190000000,0,0x44,0xE0,Write,ACK
2.756597850000000,0,0x44,0x65,Read,ACK
2.756684450000000,0,0x44,0xC2,Read,ACK
2.756771050000000,0,0x44,0x86,Read,ACK
2.756857650000000,0,0x44,0x7A,Read,ACK
2.756944250000000,0,0x44,0x0C,Read,ACK
2.757030850000000,0,0x44,0x29,Read,NAK
2.758862490000000,0,0x44,0xE0,Write,ACK
2.760694150000000,0,0x44,0x65,Read,ACK
2.760780750000000,0,0x44,0xB6,Read,ACK
2.760867350000000,0,0x44,0xBA,Read,ACK
2.760953950000000,0,0x44,0x79,Read,ACK
2.761040550000000,0,0x44,0xD5,Read,ACK
2.761127150000000,0,0x44,0x88,Read,NAK
2.762958790000000,0,0x44,0xE0,Write,ACK
2.764790450000000,0,0x44,0x65,Read,ACK
2.764877040000000,0,0x44,0xA6,Read,ACK
2.764963650000000,0,0x44,0xF9,Read,ACK
2.765050250000000,0,0x44,0x7A,Read,ACK
2.765136850000000,0,0x44,0x06,Read,ACK
2.765223450000000,0,0x44,0xF2,Read,NAK
2.767055090000000,0,0x44,0xE0,Write,ACK
2.768886740000000,0,0x44,0x65,Read,ACK
2.768973340000000,0,0x44,0xB9,Read,ACK
2.769059940000000,0,0x44,0x94,Read,ACK
2.769146540000000,0,0x44,0x79,Read,ACK
2.769233140000000,0,0x44,0xD5,Read,ACK
2.769319740000000,0,0x44,0x88,Read,NAK
2.771151390000000,0,0x44,0xE0,Write,ACK
2.772983040000000,0,0x44,0x65,Read,ACK
2.773069640000000,0,0x44,0xBE,Read,ACK
2.773156240000000,0,0x44,0x03,Read,ACK
2.773242840000000,0,0x44,0x79,Read,ACK
2.773329440000000,0,0x44,0xF1,Read,ACK
2.773416040000000,0,0x44,0xCA,Read,NAK
2.775247680000000,0,0x44,0xE0,Write,ACK
2.777079340000000,0,0x44,0x65,Read,ACK
2.777165940000000,0,0x44,0xC2,Read,ACK
2.777252540000000,0,0x44,0x86,Read,ACK
2.777339140000000,0,0x44,0x79,Read,ACK
2.777425740000000,0,0x44,0xD7,Read,ACK
2.777512340000000,0,0x44,0xEA,Read,NAK
2.779343980000000,0,0x44,0xE0,Write,ACK
2.781175630000000,0,0x44,0x65,Read,ACK
2.781262230000000,0,0x44,0xB2,Read,ACK
2.781348840000000,0,0x44,0x7E,Read,ACK
2.781435440000000,0,0x44,0x79,Read,ACK
2.781522040000000,0,0x44,0xD4,Read,ACK
2.781608640000000,0,0x44,0xB9,Read,NAK
2.783440280000000,0,0x44,0xE0,Write,ACK
2.785271930000000,0,0x44,0x65,Read,ACK
2.785358530000000,0,0x44,0xC2,Read,ACK
2.785445130000000,0,0x44,0x86,Read,ACK
2.785531730000000,0,0x44,0x79,Read,ACK
2.785618330000000,0,0x44,0xF1,Read,ACK
2.785704930000000,0,0x44,0xCA,Read,NAK
2.787536580000000,0,0x44,0xE0,Write,ACK
2.789368230000000,0,0x44,0x65,Read,ACK
2.789454830000000,0,0x44,0xBE,Read,ACK
2.789541430000000,0,0x44,0x03,Read,ACK
2.789628030000000,0,0x44,0x7A,Read,ACK
2.789714630000000,0,0x44,0x25,Read,ACK
2.789801230000000,0,0x44,0x27,Read,NAK
2.791632870000000,0,0x44,0xE0,Write,ACK
2.793464530000000,0,0x44,0x65,Read,ACK
2.793551130000000,0,0x44,0xB3,Read,ACK
2.793637730000000,0,0x44,0x4F,Read,ACK
2.793724330000000,0,0x44,0x7A,Read,ACK
2.793810930000000,0,0x44,0x23,Read,ACK
2.793897530000000,0,0x44,0x81,Read,NAK
2.795729170000000,0,0x44,0xE0,Write,ACK
2.797560820000000,0,0x44,0x65,Read,ACK
2.797647420000000,0,0x44,0xC9,Read,ACK
2.797734030000000,0,0x44,0x6C,Read,ACK
2.797820630000000,0,0x44,0x7A,Read,ACK
2.797907230000000,0,0x44,0x0D,Read,ACK
2.797993830000000,0,0x44,0x18,Read,NAK
2.799825470000000,0,0x44,0xE0,Write,ACK
2.801657120000000,0,0x44,0x65,Read,ACK
2.801743720000000,0,0x44,0xBC,Read,ACK
2.801830320000000,0,0x44,0x61,Read,ACK
2.801916920000000,0,0x44,0x7A,Read,ACK
2.802003530000000,0,0x44,0x3F,Read,ACK
2.802090120000000,0,0x44,0xBF,Read,NAK
2.803921770000000,0,0x44,0xE0,Write,ACK
2.805753420000000,0,0x44,0x65,Read,ACK
2.805840020000000,0,0x44,0xC5,Read,ACK
2.805926620000000,0,0x44,0x11,Read,ACK
2.806013220000000,0,0x44,0x79,Read,ACK
2.806099820000000,0,0x44,0xF2,Read,ACK
2.806186420000000,0,0x44,0x99,Read,NAK
2.808018060000000,0,0x44,0xE0,Write,ACK
2.809849720000000,0,0x44,0x65,Read,ACK
2.809936320000000,0,0x44,0xD7,Read,ACK
2.810022920000000,0,0x44,0x30,Read,ACK
2.810109520000000,0,0x44,0x7A,Read,ACK
2.810196120000000,0,0x44,0x10,Read,ACK
2.810282720000000,0,0x44,0x17,Read,NAK
2.812114360000000,0,0x44,0xE0,Write,ACK
2.813946020000000,0,0x44,0x65,Read,ACK
2.814032610000000,0,0x44,0xE1,Read,ACK
2.814119220000000,0,0x44,0x53,Read,ACK
2.814205820000000,0,0x44,0x7A,Read,ACK
2.814292420000000,0,0x44,0x2C,Read,ACK
2.814379020000000,0,0x44,0xAF,Read,NAK
2.816210660000000,0,0x44,0xE0,Write,ACK
2.818042310000000,0,0x44,0x65,Read,ACK
2.818128910000000,0,0x44,0xC8,Read,ACK
2.818215510000000,0,0x44,0x5D,Read,ACK
2.818302110000000,0,0x44,0x7A,Read,ACK
2.818388710000000,0,0x44,0x42,Read,ACK
2.818475320000000,0,0x44,0x0B,Read,NAK
2.820306960000000,0,0x44,0xE0,Write,ACK
2.822138610000000,0,0x44,0x65,Read,ACK
2.822225210000000,0,0x44,0xBD,Read,ACK
2.822311810000000,0,0x44,0x50,Read,ACK
2.822398410000000,0,0x44,0x7A,Read,ACK
2.822485010000000,0,0x44,0x0B,Read,ACK
2.822571610000000,0,0x44,0xBE,Read,NAK
2.824403250000000,0,0x44,0xE0,Write,ACK
2.826234910000000,0,0x44,0x65,Read,ACK
2.826321510000000,0,0x44,0xBA,Read,ACK
2.826408110000000,0,0x44,0xC7,Read,ACK
2.826494710000000,0,0x44,0x7A,Read,ACK
2.826581310000000,0,0x44,0x0A,Read,ACK
2.826667910000000,0,0x44,0x8F,Read,NAK
2.828499550000000,0,0x44,0xE0,Write,ACK
2.830331210000000,0,0x44,0x65,Read,ACK
2.830417800000000,0,0x44,0xD7,Read,ACK
2.830504410000000,0,0x44,0x30,Read,ACK
2.830591010000000,0,0x44,0x7A,Read,ACK
2.830677610000000,0,0x44,0x10,Read,ACK
2.830764210000000,0,0x44,0x17,Read,NAK
2.832595850000000,0,0x44,0xE0,Write,ACK
3.517217480000000,0,0x44,0x65,Read,ACK
3.517304080000000,0,0x44,0xC2,Read,ACK
3.517390680000000,0,0x44,0x86,Read,ACK
3.517477280000000,0,0x44,0x7A,Read,ACK
3.517563880000000,0,0x44,0x0C,Read,ACK
3.517650480000000,0,0x44,0x29,Read,NAK
3.519482130000000,0,0x44,0xE0,Write,ACK
3.521313780000000,0,0x44,0x65,Read,ACK
3.521400380000000,0,0x44,0xBC,Read,ACK
3.521486980000000,0,0x44,0x61,Read,ACK
3.521573580000000,0,0x44,0x7B,Read,ACK
3.521660180000000,0,0x44,0xAC,Read,ACK
3.521746780000000,0,0x44,0x21,Read,NAK
3.523578420000000,0,0x44,0xE0,Write,ACK
3.525410080000000,0,0x44,0x65,Read,ACK
3.525496680000000,0,0x44,0xC2,Read,ACK
3.525583280000000,0,0x44,0x86,Read,ACK
3.525669880000000,0,0x44,0x7B,Read,ACK
3.525756480000000,0,0x44,0x7A,Read,ACK
3.525843080000000,0,0x44,0x83,Read,NAK
3.527674720000000,0,0x44,0xE0,Write,ACK
3.529506370000000,0,0x44,0x65,Read,ACK
3.529592970000000,0,0x44,0xBA,Read,ACK
3.529679570000000,0,0x44,0xC7,Read,ACK
3.529766170000000,0,0x44,0x7B,Read,ACK
3.529852780000000,0,0x44,0x5E,Read,ACK
3.529939380000000,0,0x44,0xC1,Read,NAK
3.531771020000000,0,0x44,0xE0,Write,ACK
3.533602670000000,0,0x44,0x65,Read,ACK
3.533689270000000,0,0x44,0xBB,Read,ACK
3.533775870000000,0,0x44,0xF6,Read,ACK
3.533862470000000,0,0x44,0x7B,Read,ACK
3.533949070000000,0,0x44,0xAB,Read,ACK
3.534035670000000,0,0x44,0xB6,Read,NAK
3.535867320000000,0,0x44,0xE0,Write,ACK
3.537698970000000,0,0x44,0x65,Read,ACK
3.537785570000000,0,0x44,0xC6,Read,ACK
3.537872170000000,0,0x44,0x42,Read,ACK
3.537958770000000,0,0x44,0x7B,Read,ACK
3.538045370000000,0,0x44,0xAE,Read,ACK
3.538131970000000,0,0x44,0x43,Read,NAK
3.539963610000000,0,0x44,0xE0,Write,ACK
3.541795270000000,0,0x44,0x65,Read,ACK
3.541881870000000,0,0x44,0xB6,Read,ACK
3.541968470000000,0,0x44,0xBA,Read,ACK
3.542055070000000,0,0x44,0x7B,Read,ACK
3.542141670000000,0,0x44,0x43,Read,ACK
3.542228270000000,0,0x44,0xCE,Read,NAK
3.544059910000000,0,0x44,0xE0,Write,ACK
3.545891560000000,0,0x44,0x65,Read,ACK
3.545978160000000,0,0x44,0xCA,Read,ACK
3.546064770000000,0,0x44,0x3F,Read,ACK
3.546151370000000,0,0x44,0x7B,Read,ACK
3.546237970000000,0,0x44,0x7B,Read,ACK
3.546324570000000,0,0x44,0xB2,Read,NAK
3.548156210000000,0,0x44,0xE0,Write,ACK
3.549987860000000,0,0x44,0x65,Read,ACK
3.550074460000000,0,0x44,0xC8,Read,ACK
3.550161060000000,0,0x44,0x5D,Read,ACK
3.550247660000000,0,0x44,0x7B,Read,ACK
3.550334260000000,0,0x44,0xC8,Read,ACK
3.550420870000000,0,0x44,0x5E,Read,NAK
3.552252510000000,0,0x44,0xE0,Write,ACK
3.554084160000000,0,0x44,0x65,Read,ACK
3.554170760000000,0,0x44,0xC2,Read,ACK
3.554257360000000,0,0x44,0x86,Read,ACK
3.554343960000000,0,0x44,0x7B,Read,ACK
3.554430560000000,0,0x44,0x7A,Read,ACK
3.554517160000000,0,0x44,0x83,Read,NAK
3.556348810000000,0,0x44,0xE0,Write,ACK
3.558180460000000,0,0x44,0x65,Read,ACK
3.558267060000000,0,0x44,0xD7,Read,ACK
3.558353660000000,0,0x44,0x30,Read,ACK
3.558440260000000,0,0x44,0x7B,Read,ACK
3.558526860000000,0,0x44,0x7E,Read,ACK
3.558613460000000,0,0x44,0x47,Read,NAK
3.560445100000000,0,0x44,0xE0,Write,ACK
3.562276760000000,0,0x44,0x65,Read,ACK
3.562363360000000,0,0x44,0xBD,Read,ACK
3.562449960000000,0,0x44,0x50,Read,ACK
3.562536560000000,0,0x44,0x7B,Read,ACK
3.562623160000000,0,0x44,0x93,Read,ACK
3.562709760000000,0,0x44,0xCA,Read,NAK
3.564541400000000,0,0x44,0xE0,Write,ACK
3.566373050000000,0,0x44,0x65,Read,ACK
3.566459650000000,0,0x44,0xBE,Read,ACK
3.566546260000000,0,0x44,0x03,Read,ACK
3.566632860000000,0,0x44,0x7B,Read,ACK
3.566719450000000,0,0x44,0x79,Read,ACK
3.566806050000000,0,0x44,0xD0,Read,NAK
3.568637700000000,0,0x44,0xE0,Write,ACK
3.570469350000000,0,0x44,0x65,Read,ACK
3.570555950000000,0,0x44,0xBD,Read,ACK
3.570642550000000,0,0x44,0x50,Read,ACK
3.570729150000000,0,0x44,0x7B,Read,ACK
3.570815750000000,0,0x44,0xAC,Read,ACK
3.570902360000000,0,0x44,0x21,Read,NAK
3.572734000000000,0,0x44,0xE0,Write,ACK
3.574565650000000,0,0x44,0x65,Read,ACK
3.574652250000000,0,0x44,0xC9,Read,ACK
3.574738850000000,0,0x44,0x6C,Read,ACK
3.574825450000000,0,0x44,0x7B,Read,ACK
3.574912050000000,0,0x44,0xC8,Read,ACK
3.574998650000000,0,0x44,0x5E,Read,NAK
3.576830290000000,0,0x44,0xE0,Write,ACK
3.578661950000000,0,0x44,0x65,Read,ACK
3.578748550000000,0,0x44,0xBF,Read,ACK
3.578835150000000,0,0x44,0x32,Read,ACK
3.578921750000000,0,0x44,0x7B,Read,ACK
3.579008350000000,0,0x44,0xAC,Read,ACK
3.579094950000000,0,0x44,0x21,Read,NAK
3.580926590000000,0,0x44,0xE0,Write,ACK
3.582758250000000,0,0x44,0x65,Read,ACK
3.582844840000000,0,0x44,0xCA,Read,ACK
3.582931450000000,0,0x44,0x3F,Read,ACK
3.583018050000000,0,0x44,0x7B,Read,ACK
3.583104650000000,0,0x44,0xAF,Read,ACK
3.583191250000000,0,0x44,0x72,Read,NAK
3.585022890000000,0,0x44,0xE0,Write,ACK
3.586854540000000,0,0x44,0x65,Read,ACK
3.586941140000000,0,0x44,0xBB,Read,ACK
3.587027740000000,0,0x44,0xF6,Read,ACK
3.587114350000000,0,0x44,0x7B,Read,ACK
3.587200940000000,0,0x44,0xAC,Read,ACK
3.587287550000000,0,0x44,0x21,Read,NAK
3.589119190000000,0,0x44,0xE0,Write,ACK
3.590950840000000,0,0x44,0x65,Read,ACK
3.591037440000000,0,0x44,0xBE,Read,ACK
3.591124040000000,0,0x44,0x03,Read,ACK
3.591210640000000,0,0x44,0x7B,Read,ACK
3.591297240000000,0,0x44,0xE1,Read,ACK
3.591383850000000,0,0x44,0x50,Read,NAK
3.593215490000000,0,0x44,0xE0,Write,ACK
3.595047140000000,0,0x44,0x65,Read,ACK
3.595133740000000,0,0x44,0xCD,Read,ACK
3.595220340000000,0,0x44,0xA8,Read,ACK
3.595306940000000,0,0x44,0x7B,Read,ACK
3.595393540000000,0,0x44,0xAF,Read,ACK
3.595480140000000,0,0x44,0x72,Read,NAK
3.597311780000000,0,0x44,0xE0,Write,ACK
3.599143440000000,0,0x44,0x65,Read,ACK
3.599230040000000,0,0x44,0xC8,Read,ACK
3.599316640000000,0,0x44,0x5D,Read,ACK
3.599403240000000,0,0x44,0x7B,Read,ACK
3.599489840000000,0,0x44,0x95,Read,ACK
3.599576440000000,0,0x44,0x6C,Read,NAK
3.601408080000000,0,0x44,0xE0,Write,ACK
3.603239740000000,0,0x44,0x65,Read,ACK
3.603326340000000,0,0x44,0xC0,Read,ACK
3.603412940000000,0,0x44,0xE4,Read,ACK
3.603499540000000,0,0x44,0x7B,Read,ACK
3.603586140000000,0,0x44,0xAD,Read,ACK
3.603672740000000,0,0x44,0x10,Read,NAK
3.605504380000000,0,0x44,0xE0,Write,ACK
3.607336030000000,0,0x44,0x65,Read,ACK
3.607422630000000,0,0x44,0xB0,Read,ACK
3.607509240000000,0,0x44,0x1C,Read,ACK
3.607595840000000,0,0x44,0x7B,Read,ACK
3.607682430000000,0,0x44,0xA9,Read,ACK
3.607769040000000,0,0x44,0xD4,Read,NAK
3.609600680000000,0,0x44,0xE0,Write,ACK
3.611432330000000,0,0x44,0x65,Read,ACK
3.611518930000000,0,0x44,0xD4,Read,ACK
3.611605530000000,0,0x44,0x63,Read,ACK
3.611692130000000,0,0x44,0x7B,Read,ACK
3.611778730000000,0,0x44,0xCB,Read,ACK
3.611865330000000,0,0x44,0x0D,Read,NAK
3.613696980000000,0,0x44,0xE0,Write,ACK
3.615528630000000,0,0x44,0x65,Read,ACK
3.615615230000000,0,0x44,0xD9,Read,ACK
3.615701830000000,0,0x44,0x2F,Read,ACK
3.615788430000000,0,0x44,0x7B,Read,ACK
3.615875030000000,0,0x44,0xCC,Read,ACK
3.615961630000000,0,0x44,0x9A,Read,NAK
3.617793280000000,0,0x44,0xE0,Write,ACK
3.619624930000000,0,0x44,0x65,Read,ACK
3.619711530000000,0,0x44,0xBA,Read,ACK
3.619798130000000,0,0x44,0xC7,Read,ACK
3.619884730000000,0,0x44,0x7B,Read,ACK
3.619971330000000,0,0x44,0xAC,Read,ACK
3.620057930000000,0,0x44,0x21,Read,NAK
3.621889570000000,0,0x44,0xE0,Write,ACK
3.623721230000000,0,0x44,0x65,Read,ACK
3.623807830000000,0,0x44,0xC4,Read,ACK
3.623894430000000,0,0x44,0x20,Read,ACK
3.623981030000000,0,0x44,0x7B,Read,ACK
3.624067630000000,0,0x44,0xC8,Read,ACK
3.624154230000000,0,0x44,0x5E,Read,NAK
3.625985870000000,0,0x44,0xE0,Write,ACK
3.627817530000000,0,0x44,0x65,Read,ACK
3.627904120000000,0,0x44,0xC4,Read,ACK
3.627990730000000,0,0x44,0x20,Read,ACK
3.628077330000000,0,0x44,0x7B,Read,ACK
3.628163930000000,0,0x44,0x94,Read,ACK
3.628250530000000,0,0x44,0x5D,Read,NAK
3.630082170000000,0,0x44,0xE0,Write,ACK
3.631913830000000,0,0x44,0x65,Read,ACK
3.632000420000000,0,0x44,0xC8,Read,ACK
3.632087030000000,0,0x44,0x5D,Read,ACK
3.632173630000000,0,0x44,0x7B,Read,ACK
3.632260230000000,0,0x44,0xAE,Read,ACK
3.632346830000000,0,0x44,0x43,Read,NAK
3.634178470000000,0,0x44,0xE0,Write,ACK
3.636010120000000,0,0x44,0x65,Read,ACK
3.636096720000000,0,0x44,0xBA,Read,ACK
3.636183320000000,0,0x44,0xC7,Read,ACK
3.636269920000000,0,0x44,0x7B,Read,ACK
3.636356520000000,0,0x44,0xE0,Read,ACK
3.636443130000000,0,0x44,0x61,Read,NAK
3.638274770000000,0,0x44,0xE0,Write,ACK
3.640106420000000,0,0x44,0x65,Read,ACK
3.640193020000000,0,0x44,0xA9,Read,ACK
3.640279620000000,0,0x44,0xD7,Read,ACK
3.640366220000000,0,0x44,0x7B,Read,ACK
3.640452820000000,0,0x44,0xC2,Read,ACK
3.640539420000000,0,0x44,0x85,Read,NAK
3.642371070000000,0,0x44,0xE0,Write,ACK
3.644202720000000,0,0x44,0x65,Read,ACK
3.644289320000000,0,0x44,0xAD,Read,ACK
3.644375920000000,0,0x44,0x13,Read,ACK
3.644462520000000,0,0x44,0x7B,Read,ACK
3.644549120000000,0,0x44,0xA8,Read,ACK
3.644635720000000,0,0x44,0xE5,Read,NAK
3.646467360000000,0,0x44,0xE0,Write,ACK
3.648299020000000,0,0x44,0x65,Read,ACK
3.648385620000000,0,0x44,0xC4,Read,ACK
3.648472220000000,0,0x44,0x20,Read,ACK
3.648558820000000,0,0x44,0x7B,Read,ACK
3.648645420000000,0,0x44,0xFC,Read,ACK
3.648732020000000,0,0x44,0x5F,Read,NAK

